
T4454 000:379 SEGGER J-Link V4.96d Log File (0002ms, 0265ms total)
T4454 000:379 DLL Compiled: Jan 29 2015 11:45:37 (0002ms, 0265ms total)
T4454 000:379 Logging started @ 2019-12-04 15:01 (0002ms, 0265ms total)
T4454 000:381 JLINK_SetWarnOutHandler(...) (0000ms, 0265ms total)
T4454 000:381 JLINK_OpenEx(...)
Firmware: J-Link ARM-OB STM32 compiled Aug 22 2012 19:52:04
Hardware: V7.00
S/N: 20090928
Feature(s): RDI,FlashDL,FlashBP,JFlash,GDBFull  returns O.K. (0275ms, 0540ms total)
T4454 000:657 JLINK_SetErrorOutHandler(...) (0000ms, 0541ms total)
T4454 000:657 JLINK_ExecCommand("ProjectFile = "D:\备份电转向代码\电转向_方向盘\ESS_CA_V1.0_20191024_Beta_转接板\N6_CA_V3.1_20190220\project\JLinkSettings.ini"", ...)  returns 0x00 (0007ms, 0548ms total)
T4454 000:675 JLINK_ExecCommand("Device = nRF51422_xxAC", ...)Device "NRF51422_XXAC" selected.  returns 0x00 (0005ms, 0553ms total)
T4454 000:680 JLINK_ExecCommand("DisableConnectionTimeout", ...)  returns 0x01 (0000ms, 0553ms total)
T4454 000:680 JLINK_GetHardwareVersion()  returns 0x11170 (0000ms, 0553ms total)
T4454 000:680 JLINK_GetDLLVersion()  returns 49604 (0000ms, 0553ms total)
T4454 000:680 JLINK_GetFirmwareString(...) (0000ms, 0553ms total)
T4454 000:705 JLINK_GetDLLVersion()  returns 49604 (0000ms, 0553ms total)
T4454 000:705 JLINK_GetCompileDateTime() (0000ms, 0553ms total)
T4454 000:715 JLINK_GetFirmwareString(...) (0000ms, 0553ms total)
T4454 000:723 JLINK_GetHardwareVersion()  returns 0x11170 (0000ms, 0553ms total)
T4454 000:769 JLINK_TIF_Select(JLINKARM_TIF_SWD)  returns 0x00 (0000ms, 0553ms total)
T4454 000:769 JLINK_SetSpeed(5000) (0000ms, 0553ms total)
T4454 000:769 JLINK_GetId() >0x108 TIF>Found SWD-DP with ID 0x0BB11477 >0x35 TIF> >0x0D TIF> >0x28 TIF> >0x0D TIF> >0x28 TIF> >0x35 TIF> >0x0D TIF> >0x28 TIF> >0x35 TIF> >0x35 TIF> >0x35 TIF> >0x0D TIF> >0x28 TIF> >0x0D TIF> >0x28 TIF> >0x0D TIF> >0x28 TIF> >0x35 TIF> >0x35 TIF> >0x35 TIF> >0x0D TIF> >0x28 TIF> >0x0D TIF> >0x28 TIF> >0x35 TIF> >0x0D TIF> >0x28 TIF> >0x0D TIF> >0x28 TIF> >0x0D TIF> >0x28 TIF> >0x35 TIF> >0x35 TIF> >0x0D TIF> >0x28 TIF> >0x35 TIF> >0x35 TIF>
Found Cortex-M0 r0p0, Little endian. -- CPU_WriteMem(4 bytes @ 0xE0002000) -- CPU_ReadMem(4 bytes @ 0xE000EDF0) -- CPU_ReadMem(4 bytes @ 0xE0002000)FPUnit: 4 code (BP) slots and 0 literal slots -- CPU_ReadMem(4 bytes @ 0xE000EDFC) -- CPU_ReadMem(4 bytes @ 0xE0001000) -- CPU_WriteMem(4 bytes @ 0xE0001000) -- CPU_ReadMem(4 bytes @ 0xE00FF018) >0x35 TIF>  returns 0x0BB11477 (0023ms, 0576ms total)
T4454 000:792 JLINK_GetDLLVersion()  returns 49604 (0000ms, 0576ms total)
T4454 000:792 JLINK_CORE_GetFound()  returns 0x60000FF (0000ms, 0576ms total)
T4454 000:792 JLINK_GetDebugInfo(0x100) -- Value=0xF0000003  returns 0x00 (0000ms, 0576ms total)
T4454 000:801 JLINK_ReadMem (0xF0000000, 0x0020 Bytes, ...) -- CPU is running -- CPU_ReadMem(32 bytes @ 0xF0000000) - Data: 03 F0 0F F0 03 20 00 00 00 00 00 00 00 00 00 00 ...  returns 0x00 (0001ms, 0577ms total)
T4454 000:802 JLINK_ReadMem (0xE00FFFF0, 0x0010 Bytes, ...) -- CPU is running -- CPU_ReadMem(16 bytes @ 0xE00FFFF0) - Data: 0D 00 00 00 10 00 00 00 05 00 00 00 B1 00 00 00  returns 0x00 (0001ms, 0578ms total)
T4454 000:803 JLINK_ReadMem (0xE00FFFD0, 0x0020 Bytes, ...) -- CPU is running -- CPU_ReadMem(32 bytes @ 0xE00FFFD0) - Data: 04 00 00 00 00 00 00 00 00 00 00 00 00 00 00 00 ...  returns 0x00 (0000ms, 0578ms total)
T4454 000:803 JLINK_ReadMem (0xE00FF000, 0x0020 Bytes, ...) -- CPU is running -- CPU_ReadMem(32 bytes @ 0xE00FF000) - Data: 03 F0 F0 FF 03 20 F0 FF 03 30 F0 FF 00 00 00 00 ...  returns 0x00 (0001ms, 0579ms total)
T4454 000:804 JLINK_ReadMem (0xE000EFF0, 0x0010 Bytes, ...) -- CPU is running -- CPU_ReadMem(16 bytes @ 0xE000EFF0) - Data: 0D 00 00 00 E0 00 00 00 05 00 00 00 B1 00 00 00  returns 0x00 (0001ms, 0580ms total)
T4454 000:805 JLINK_ReadMem (0xE000EFD0, 0x0020 Bytes, ...) -- CPU is running -- CPU_ReadMem(32 bytes @ 0xE000EFD0) - Data: 04 00 00 00 00 00 00 00 00 00 00 00 00 00 00 00 ...  returns 0x00 (0000ms, 0580ms total)
T4454 000:805 JLINK_ReadMem (0xE0001FF0, 0x0010 Bytes, ...) -- CPU is running -- CPU_ReadMem(16 bytes @ 0xE0001FF0) - Data: 0D 00 00 00 E0 00 00 00 05 00 00 00 B1 00 00 00  returns 0x00 (0001ms, 0581ms total)
T4454 000:806 JLINK_ReadMem (0xE0001FD0, 0x0020 Bytes, ...) -- CPU is running -- CPU_ReadMem(32 bytes @ 0xE0001FD0) - Data: 04 00 00 00 00 00 00 00 00 00 00 00 00 00 00 00 ...  returns 0x00 (0001ms, 0582ms total)
T4454 000:807 JLINK_ReadMem (0xE0002FF0, 0x0010 Bytes, ...) -- CPU is running -- CPU_ReadMem(16 bytes @ 0xE0002FF0) - Data: 0D 00 00 00 E0 00 00 00 05 00 00 00 B1 00 00 00  returns 0x00 (0001ms, 0583ms total)
T4454 000:808 JLINK_ReadMem (0xE0002FD0, 0x0020 Bytes, ...) -- CPU is running -- CPU_ReadMem(32 bytes @ 0xE0002FD0) - Data: 04 00 00 00 00 00 00 00 00 00 00 00 00 00 00 00 ...  returns 0x00 (0000ms, 0583ms total)
T4454 000:808 JLINK_ReadMem (0xF0002FF0, 0x0010 Bytes, ...) -- CPU is running -- CPU_ReadMem(16 bytes @ 0xF0002FF0) - Data: 0D 00 00 00 90 00 00 00 05 00 00 00 B1 00 00 00  returns 0x00 (0001ms, 0584ms total)
T4454 000:809 JLINK_ReadMem (0xF0002FD0, 0x0020 Bytes, ...) -- CPU is running -- CPU_ReadMem(32 bytes @ 0xF0002FD0) - Data: 04 00 00 00 00 00 00 00 00 00 00 00 00 00 00 00 ...  returns 0x00 (0001ms, 0585ms total)
T4454 000:810 JLINK_ReadMemU32(0xE000ED00, 0x0001 Items, ...) -- CPU is running -- CPU_ReadMem(4 bytes @ 0xE000ED00) - Data: 00 C2 0C 41  returns 0x01 (0000ms, 0585ms total)
T4454 000:810 JLINK_SetResetType(JLINKARM_RESET_TYPE_NORMAL)  returns JLINKARM_RESET_TYPE_NORMAL (0000ms, 0585ms total)
T4454 000:810 JLINK_Reset() -- CPU is running -- CPU_WriteMem(4 bytes @ 0xE000EDF0) -- CPU is running -- CPU_WriteMem(4 bytes @ 0xE000EDFC) >0x35 TIF> -- CPU is running -- CPU_WriteMem(4 bytes @ 0xE000ED0C) -- CPU is running -- CPU_ReadMem(4 bytes @ 0xE000EDF0) -- CPU is running -- CPU_ReadMem(4 bytes @ 0xE000EDF0) -- CPU is running -- CPU_WriteMem(4 bytes @ 0xE000EDF0) -- CPU is running -- CPU_WriteMem(4 bytes @ 0xE000EDFC) -- CPU is running -- CPU_ReadMem(4 bytes @ 0xE000EDF0)
 -- CPU_WriteMem(4 bytes @ 0xE0002000) -- CPU_ReadMem(4 bytes @ 0xE000EDFC) -- CPU_ReadMem(4 bytes @ 0xE0001000) -- CPU_WriteMem(4 bytes @ 0xE0001000) (0019ms, 0604ms total)
T4454 000:829 JLINK_Halt()  returns 0x00 (0000ms, 0604ms total)
T4454 000:829 JLINK_IsHalted()  returns TRUE (0000ms, 0604ms total)
T4454 000:829 JLINK_ReadMemU32(0xE000EDF0, 0x0001 Items, ...) -- CPU_ReadMem(4 bytes @ 0xE000EDF0) - Data: 03 00 03 00  returns 0x01 (0001ms, 0605ms total)
T4454 000:830 JLINK_WriteU32(0xE000EDF0, 0xA05F0003) -- CPU_WriteMem(4 bytes @ 0xE000EDF0)  returns 0x00 (0000ms, 0605ms total)
T4454 000:830 JLINK_WriteU32(0xE000EDFC, 0x01000000) -- CPU_WriteMem(4 bytes @ 0xE000EDFC)  returns 0x00 (0001ms, 0606ms total)
T4454 000:846 JLINK_GetHWStatus(...)  returns 0x00 (0000ms, 0606ms total)
T4454 000:860 JLINK_GetNumBPUnits(Type = 0xFFFFFF00)  returns 0x04 (0000ms, 0606ms total)
T4454 000:860 JLINK_GetNumBPUnits(Type = 0xF0)  returns 0x2000 (0000ms, 0606ms total)
T4454 000:860 JLINK_GetNumWPUnits()  returns 0x02 (0000ms, 0606ms total)
T4454 000:871 JLINK_GetSpeed()  returns 0xFA0 (0000ms, 0606ms total)
T4454 000:881 JLINK_ReadMemU32(0xE000E004, 0x0001 Items, ...) -- CPU_ReadMem(4 bytes @ 0xE000E004) - Data: 00 00 00 00  returns 0x01 (0000ms, 0606ms total)
T4454 000:881 JLINK_Halt()  returns 0x00 (0000ms, 0606ms total)
T4454 000:881 JLINK_IsHalted()  returns TRUE (0000ms, 0606ms total)
T4454 000:888 JLINK_WriteMem(0x20000000, 0x0844 Bytes, ...) - Data: 00 BE 0A E0 0D 78 2D 06 68 40 08 24 40 00 00 D3 ... -- CPU_WriteMem(2116 bytes @ 0x20000000)  returns 0x844 (0025ms, 0631ms total)
T4454 000:913 JLINK_WriteReg(R0, 0x00000000)  returns 0x00 (0000ms, 0631ms total)
T4454 000:913 JLINK_WriteReg(R1, 0x00F42400)  returns 0x00 (0001ms, 0632ms total)
T4454 000:914 JLINK_WriteReg(R2, 0x00000001)  returns 0x00 (0000ms, 0632ms total)
T4454 000:914 JLINK_WriteReg(R3, 0x00000000)  returns 0x00 (0000ms, 0632ms total)
T4454 000:914 JLINK_WriteReg(R4, 0x00000000)  returns 0x00 (0000ms, 0632ms total)
T4454 000:914 JLINK_WriteReg(R5, 0x00000000)  returns 0x00 (0000ms, 0632ms total)
T4454 000:914 JLINK_WriteReg(R6, 0x00000000)  returns 0x00 (0000ms, 0632ms total)
T4454 000:914 JLINK_WriteReg(R7, 0x00000000)  returns 0x00 (0000ms, 0632ms total)
T4454 000:914 JLINK_WriteReg(R8, 0x00000000)  returns 0x00 (0000ms, 0632ms total)
T4454 000:914 JLINK_WriteReg(R9, 0x20000840)  returns 0x00 (0000ms, 0632ms total)
T4454 000:914 JLINK_WriteReg(R10, 0x00000000)  returns 0x00 (0000ms, 0632ms total)
T4454 000:914 JLINK_WriteReg(R11, 0x00000000)  returns 0x00 (0000ms, 0632ms total)
T4454 000:914 JLINK_WriteReg(R12, 0x00000000)  returns 0x00 (0000ms, 0632ms total)
T4454 000:914 JLINK_WriteReg(R13 (SP), 0x20001000)  returns 0x00 (0000ms, 0632ms total)
T4454 000:914 JLINK_WriteReg(R14, 0x20000001)  returns 0x00 (0000ms, 0632ms total)
T4454 000:914 JLINK_WriteReg(R15 (PC), 0x20000020)  returns 0x00 (0000ms, 0632ms total)
T4454 000:914 JLINK_WriteReg(XPSR, 0x01000000)  returns 0x00 (0000ms, 0632ms total)
T4454 000:914 JLINK_WriteReg(MSP, 0x20001000)  returns 0x00 (0000ms, 0632ms total)
T4454 000:914 JLINK_WriteReg(PSP, 0x20001000)  returns 0x00 (0000ms, 0632ms total)
T4454 000:914 JLINK_WriteReg(CFBP, 0x00000000)  returns 0x00 (0000ms, 0632ms total)
T4454 000:914 JLINK_SetBPEx(Addr = 0x20000000, Type = 0xFFFFFFF2) -- CPU_ReadMem(2 bytes @ 0x20000000)  returns 0x00000001 (0001ms, 0633ms total)
T4454 000:915 JLINK_Go() -- CPU_WriteMem(2 bytes @ 0x20000000) -- CPU_WriteMem(4 bytes @ 0xE0002008) -- CPU_WriteMem(4 bytes @ 0xE000200C) -- CPU_WriteMem(4 bytes @ 0xE0002010) -- CPU_WriteMem(4 bytes @ 0xE0002014) -- CPU_WriteMem(4 bytes @ 0xE0001004) (0005ms, 0638ms total)
T4454 000:920 JLINK_IsHalted() -- CPU_ReadMem(2 bytes @ 0x20000000)  returns TRUE (0004ms, 0642ms total)
T4454 000:924 JLINK_ReadReg(R15 (PC))  returns 0x20000000 (0000ms, 0638ms total)
T4454 000:924 JLINK_ClrBPEx(BPHandle = 0x00000001)  returns 0x00 (0000ms, 0638ms total)
T4454 000:924 JLINK_ReadReg(R0)  returns 0x00000000 (0000ms, 0638ms total)
T4454 000:925 JLINK_WriteReg(R0, 0x00018000)  returns 0x00 (0000ms, 0638ms total)
T4454 000:925 JLINK_WriteReg(R1, 0x00000400)  returns 0x00 (0000ms, 0638ms total)
T4454 000:925 JLINK_WriteReg(R2, 0x000000FF)  returns 0x00 (0000ms, 0638ms total)
T4454 000:925 JLINK_WriteReg(R3, 0x00000000)  returns 0x00 (0000ms, 0638ms total)
T4454 000:925 JLINK_WriteReg(R4, 0x00000000)  returns 0x00 (0000ms, 0638ms total)
T4454 000:925 JLINK_WriteReg(R5, 0x00000000)  returns 0x00 (0000ms, 0638ms total)
T4454 000:925 JLINK_WriteReg(R6, 0x00000000)  returns 0x00 (0000ms, 0638ms total)
T4454 000:925 JLINK_WriteReg(R7, 0x00000000)  returns 0x00 (0000ms, 0638ms total)
T4454 000:925 JLINK_WriteReg(R8, 0x00000000)  returns 0x00 (0000ms, 0638ms total)
T4454 000:925 JLINK_WriteReg(R9, 0x20000840)  returns 0x00 (0000ms, 0638ms total)
T4454 000:925 JLINK_WriteReg(R10, 0x00000000)  returns 0x00 (0000ms, 0638ms total)
T4454 000:925 JLINK_WriteReg(R11, 0x00000000)  returns 0x00 (0000ms, 0638ms total)
T4454 000:925 JLINK_WriteReg(R12, 0x00000000)  returns 0x00 (0000ms, 0638ms total)
T4454 000:925 JLINK_WriteReg(R13 (SP), 0x20001000)  returns 0x00 (0000ms, 0638ms total)
T4454 000:925 JLINK_WriteReg(R14, 0x20000001)  returns 0x00 (0001ms, 0639ms total)
T4454 000:926 JLINK_WriteReg(R15 (PC), 0x2000032C)  returns 0x00 (0000ms, 0639ms total)
T4454 000:926 JLINK_WriteReg(XPSR, 0x01000000)  returns 0x00 (0000ms, 0639ms total)
T4454 000:926 JLINK_WriteReg(MSP, 0x20001000)  returns 0x00 (0000ms, 0639ms total)
T4454 000:926 JLINK_WriteReg(PSP, 0x20001000)  returns 0x00 (0000ms, 0639ms total)
T4454 000:926 JLINK_WriteReg(CFBP, 0x00000000)  returns 0x00 (0000ms, 0639ms total)
T4454 000:926 JLINK_SetBPEx(Addr = 0x20000000, Type = 0xFFFFFFF2)  returns 0x00000002 (0000ms, 0639ms total)
T4454 000:926 JLINK_Go() (0001ms, 0640ms total)
T4454 000:927 JLINK_IsHalted() -- CPU_ReadMem(2 bytes @ 0x20000000)  returns TRUE (0004ms, 0644ms total)
T4454 000:931 JLINK_ReadReg(R15 (PC))  returns 0x20000000 (0000ms, 0640ms total)
T4454 000:931 JLINK_ClrBPEx(BPHandle = 0x00000002)  returns 0x00 (0000ms, 0640ms total)
T4454 000:931 JLINK_ReadReg(R0)  returns 0x00000001 (0000ms, 0640ms total)
T4454 000:931 JLINK_WriteReg(R0, 0x00018000)  returns 0x00 (0000ms, 0640ms total)
T4454 000:931 JLINK_WriteReg(R1, 0x00000400)  returns 0x00 (0000ms, 0640ms total)
T4454 000:931 JLINK_WriteReg(R2, 0x000000FF)  returns 0x00 (0000ms, 0640ms total)
T4454 000:931 JLINK_WriteReg(R3, 0x00000000)  returns 0x00 (0000ms, 0640ms total)
T4454 000:931 JLINK_WriteReg(R4, 0x00000000)  returns 0x00 (0000ms, 0640ms total)
T4454 000:931 JLINK_WriteReg(R5, 0x00000000)  returns 0x00 (0000ms, 0640ms total)
T4454 000:931 JLINK_WriteReg(R6, 0x00000000)  returns 0x00 (0000ms, 0640ms total)
T4454 000:931 JLINK_WriteReg(R7, 0x00000000)  returns 0x00 (0000ms, 0640ms total)
T4454 000:931 JLINK_WriteReg(R8, 0x00000000)  returns 0x00 (0000ms, 0640ms total)
T4454 000:931 JLINK_WriteReg(R9, 0x20000840)  returns 0x00 (0000ms, 0640ms total)
T4454 000:931 JLINK_WriteReg(R10, 0x00000000)  returns 0x00 (0000ms, 0640ms total)
T4454 000:931 JLINK_WriteReg(R11, 0x00000000)  returns 0x00 (0000ms, 0640ms total)
T4454 000:931 JLINK_WriteReg(R12, 0x00000000)  returns 0x00 (0000ms, 0640ms total)
T4454 000:931 JLINK_WriteReg(R13 (SP), 0x20001000)  returns 0x00 (0001ms, 0641ms total)
T4454 000:932 JLINK_WriteReg(R14, 0x20000001)  returns 0x00 (0000ms, 0641ms total)
T4454 000:932 JLINK_WriteReg(R15 (PC), 0x20000154)  returns 0x00 (0000ms, 0641ms total)
T4454 000:932 JLINK_WriteReg(XPSR, 0x01000000)  returns 0x00 (0000ms, 0641ms total)
T4454 000:932 JLINK_WriteReg(MSP, 0x20001000)  returns 0x00 (0000ms, 0641ms total)
T4454 000:932 JLINK_WriteReg(PSP, 0x20001000)  returns 0x00 (0000ms, 0641ms total)
T4454 000:932 JLINK_WriteReg(CFBP, 0x00000000)  returns 0x00 (0000ms, 0641ms total)
T4454 000:932 JLINK_SetBPEx(Addr = 0x20000000, Type = 0xFFFFFFF2)  returns 0x00000003 (0000ms, 0641ms total)
T4454 000:932 JLINK_Go() (0001ms, 0642ms total)
T4454 000:933 JLINK_IsHalted()  returns FALSE (0001ms, 0643ms total)
T4454 001:032 JLINK_IsHalted() -- CPU_ReadMem(2 bytes @ 0x20000000)  returns TRUE (0003ms, 0645ms total)
T4454 001:035 JLINK_ReadReg(R15 (PC))  returns 0x20000000 (0000ms, 0642ms total)
T4454 001:035 JLINK_ClrBPEx(BPHandle = 0x00000003)  returns 0x00 (0000ms, 0642ms total)
T4454 001:035 JLINK_ReadReg(R0)  returns 0x00000000 (0000ms, 0642ms total)
T4454 001:036 JLINK_WriteReg(R0, 0x00018400)  returns 0x00 (0000ms, 0642ms total)
T4454 001:036 JLINK_WriteReg(R1, 0x00000400)  returns 0x00 (0000ms, 0642ms total)
T4454 001:036 JLINK_WriteReg(R2, 0x000000FF)  returns 0x00 (0000ms, 0642ms total)
T4454 001:036 JLINK_WriteReg(R3, 0x00000000)  returns 0x00 (0000ms, 0642ms total)
T4454 001:036 JLINK_WriteReg(R4, 0x00000000)  returns 0x00 (0000ms, 0642ms total)
T4454 001:036 JLINK_WriteReg(R5, 0x00000000)  returns 0x00 (0000ms, 0642ms total)
T4454 001:036 JLINK_WriteReg(R6, 0x00000000)  returns 0x00 (0000ms, 0642ms total)
T4454 001:036 JLINK_WriteReg(R7, 0x00000000)  returns 0x00 (0000ms, 0642ms total)
T4454 001:036 JLINK_WriteReg(R8, 0x00000000)  returns 0x00 (0000ms, 0642ms total)
T4454 001:036 JLINK_WriteReg(R9, 0x20000840)  returns 0x00 (0000ms, 0642ms total)
T4454 001:036 JLINK_WriteReg(R10, 0x00000000)  returns 0x00 (0000ms, 0642ms total)
T4454 001:036 JLINK_WriteReg(R11, 0x00000000)  returns 0x00 (0000ms, 0642ms total)
T4454 001:036 JLINK_WriteReg(R12, 0x00000000)  returns 0x00 (0000ms, 0642ms total)
T4454 001:036 JLINK_WriteReg(R13 (SP), 0x20001000)  returns 0x00 (0001ms, 0643ms total)
T4454 001:037 JLINK_WriteReg(R14, 0x20000001)  returns 0x00 (0000ms, 0643ms total)
T4454 001:037 JLINK_WriteReg(R15 (PC), 0x2000032C)  returns 0x00 (0000ms, 0643ms total)
T4454 001:037 JLINK_WriteReg(XPSR, 0x01000000)  returns 0x00 (0000ms, 0643ms total)
T4454 001:037 JLINK_WriteReg(MSP, 0x20001000)  returns 0x00 (0000ms, 0643ms total)
T4454 001:037 JLINK_WriteReg(PSP, 0x20001000)  returns 0x00 (0000ms, 0643ms total)
T4454 001:037 JLINK_WriteReg(CFBP, 0x00000000)  returns 0x00 (0000ms, 0643ms total)
T4454 001:037 JLINK_SetBPEx(Addr = 0x20000000, Type = 0xFFFFFFF2)  returns 0x00000004 (0000ms, 0643ms total)
T4454 001:037 JLINK_Go() (0002ms, 0645ms total)
T4454 001:039 JLINK_IsHalted() -- CPU_ReadMem(2 bytes @ 0x20000000)  returns TRUE (0003ms, 0648ms total)
T4454 001:042 JLINK_ReadReg(R15 (PC))  returns 0x20000000 (0000ms, 0645ms total)
T4454 001:042 JLINK_ClrBPEx(BPHandle = 0x00000004)  returns 0x00 (0000ms, 0645ms total)
T4454 001:042 JLINK_ReadReg(R0)  returns 0x00000001 (0000ms, 0645ms total)
T4454 001:042 JLINK_WriteReg(R0, 0x00018400)  returns 0x00 (0000ms, 0645ms total)
T4454 001:042 JLINK_WriteReg(R1, 0x00000400)  returns 0x00 (0001ms, 0646ms total)
T4454 001:043 JLINK_WriteReg(R2, 0x000000FF)  returns 0x00 (0000ms, 0646ms total)
T4454 001:043 JLINK_WriteReg(R3, 0x00000000)  returns 0x00 (0000ms, 0646ms total)
T4454 001:043 JLINK_WriteReg(R4, 0x00000000)  returns 0x00 (0000ms, 0646ms total)
T4454 001:043 JLINK_WriteReg(R5, 0x00000000)  returns 0x00 (0000ms, 0646ms total)
T4454 001:043 JLINK_WriteReg(R6, 0x00000000)  returns 0x00 (0000ms, 0646ms total)
T4454 001:043 JLINK_WriteReg(R7, 0x00000000)  returns 0x00 (0000ms, 0646ms total)
T4454 001:043 JLINK_WriteReg(R8, 0x00000000)  returns 0x00 (0000ms, 0646ms total)
T4454 001:043 JLINK_WriteReg(R9, 0x20000840)  returns 0x00 (0000ms, 0646ms total)
T4454 001:043 JLINK_WriteReg(R10, 0x00000000)  returns 0x00 (0000ms, 0646ms total)
T4454 001:043 JLINK_WriteReg(R11, 0x00000000)  returns 0x00 (0000ms, 0646ms total)
T4454 001:043 JLINK_WriteReg(R12, 0x00000000)  returns 0x00 (0000ms, 0646ms total)
T4454 001:043 JLINK_WriteReg(R13 (SP), 0x20001000)  returns 0x00 (0000ms, 0646ms total)
T4454 001:043 JLINK_WriteReg(R14, 0x20000001)  returns 0x00 (0000ms, 0646ms total)
T4454 001:043 JLINK_WriteReg(R15 (PC), 0x20000154)  returns 0x00 (0000ms, 0646ms total)
T4454 001:043 JLINK_WriteReg(XPSR, 0x01000000)  returns 0x00 (0000ms, 0646ms total)
T4454 001:043 JLINK_WriteReg(MSP, 0x20001000)  returns 0x00 (0000ms, 0646ms total)
T4454 001:043 JLINK_WriteReg(PSP, 0x20001000)  returns 0x00 (0000ms, 0646ms total)
T4454 001:043 JLINK_WriteReg(CFBP, 0x00000000)  returns 0x00 (0000ms, 0646ms total)
T4454 001:043 JLINK_SetBPEx(Addr = 0x20000000, Type = 0xFFFFFFF2)  returns 0x00000005 (0000ms, 0646ms total)
T4454 001:043 JLINK_Go() (0002ms, 0648ms total)
T4454 001:045 JLINK_IsHalted()  returns FALSE (0001ms, 0649ms total)
T4454 001:051 JLINK_IsHalted()  returns FALSE (0000ms, 0648ms total)
T4454 001:053 JLINK_IsHalted()  returns FALSE (0000ms, 0648ms total)
T4454 001:055 JLINK_IsHalted()  returns FALSE (0000ms, 0648ms total)
T4454 001:057 JLINK_IsHalted()  returns FALSE (0000ms, 0648ms total)
T4454 001:059 JLINK_IsHalted()  returns FALSE (0000ms, 0648ms total)
T4454 001:061 JLINK_IsHalted()  returns FALSE (0000ms, 0648ms total)
T4454 001:067 JLINK_IsHalted() -- CPU_ReadMem(2 bytes @ 0x20000000)  returns TRUE (0003ms, 0651ms total)
T4454 001:070 JLINK_ReadReg(R15 (PC))  returns 0x20000000 (0000ms, 0648ms total)
T4454 001:070 JLINK_ClrBPEx(BPHandle = 0x00000005)  returns 0x00 (0000ms, 0648ms total)
T4454 001:070 JLINK_ReadReg(R0)  returns 0x00000000 (0000ms, 0648ms total)
T4454 001:071 JLINK_WriteReg(R0, 0x00018800)  returns 0x00 (0000ms, 0648ms total)
T4454 001:071 JLINK_WriteReg(R1, 0x00000400)  returns 0x00 (0000ms, 0648ms total)
T4454 001:071 JLINK_WriteReg(R2, 0x000000FF)  returns 0x00 (0000ms, 0648ms total)
T4454 001:071 JLINK_WriteReg(R3, 0x00000000)  returns 0x00 (0000ms, 0648ms total)
T4454 001:071 JLINK_WriteReg(R4, 0x00000000)  returns 0x00 (0000ms, 0648ms total)
T4454 001:071 JLINK_WriteReg(R5, 0x00000000)  returns 0x00 (0000ms, 0648ms total)
T4454 001:071 JLINK_WriteReg(R6, 0x00000000)  returns 0x00 (0000ms, 0648ms total)
T4454 001:071 JLINK_WriteReg(R7, 0x00000000)  returns 0x00 (0000ms, 0648ms total)
T4454 001:071 JLINK_WriteReg(R8, 0x00000000)  returns 0x00 (0000ms, 0648ms total)
T4454 001:071 JLINK_WriteReg(R9, 0x20000840)  returns 0x00 (0000ms, 0648ms total)
T4454 001:071 JLINK_WriteReg(R10, 0x00000000)  returns 0x00 (0000ms, 0648ms total)
T4454 001:071 JLINK_WriteReg(R11, 0x00000000)  returns 0x00 (0000ms, 0648ms total)
T4454 001:071 JLINK_WriteReg(R12, 0x00000000)  returns 0x00 (0000ms, 0648ms total)
T4454 001:071 JLINK_WriteReg(R13 (SP), 0x20001000)  returns 0x00 (0000ms, 0648ms total)
T4454 001:071 JLINK_WriteReg(R14, 0x20000001)  returns 0x00 (0000ms, 0648ms total)
T4454 001:071 JLINK_WriteReg(R15 (PC), 0x2000032C)  returns 0x00 (0001ms, 0649ms total)
T4454 001:072 JLINK_WriteReg(XPSR, 0x01000000)  returns 0x00 (0000ms, 0649ms total)
T4454 001:072 JLINK_WriteReg(MSP, 0x20001000)  returns 0x00 (0000ms, 0649ms total)
T4454 001:072 JLINK_WriteReg(PSP, 0x20001000)  returns 0x00 (0000ms, 0649ms total)
T4454 001:072 JLINK_WriteReg(CFBP, 0x00000000)  returns 0x00 (0000ms, 0649ms total)
T4454 001:072 JLINK_SetBPEx(Addr = 0x20000000, Type = 0xFFFFFFF2)  returns 0x00000006 (0000ms, 0649ms total)
T4454 001:072 JLINK_Go() (0002ms, 0651ms total)
T4454 001:074 JLINK_IsHalted() -- CPU_ReadMem(2 bytes @ 0x20000000)  returns TRUE (0003ms, 0654ms total)
T4454 001:077 JLINK_ReadReg(R15 (PC))  returns 0x20000000 (0000ms, 0651ms total)
T4454 001:077 JLINK_ClrBPEx(BPHandle = 0x00000006)  returns 0x00 (0000ms, 0651ms total)
T4454 001:077 JLINK_ReadReg(R0)  returns 0x00000001 (0000ms, 0651ms total)
T4454 001:077 JLINK_WriteReg(R0, 0x00018800)  returns 0x00 (0000ms, 0651ms total)
T4454 001:077 JLINK_WriteReg(R1, 0x00000400)  returns 0x00 (0001ms, 0652ms total)
T4454 001:078 JLINK_WriteReg(R2, 0x000000FF)  returns 0x00 (0000ms, 0652ms total)
T4454 001:078 JLINK_WriteReg(R3, 0x00000000)  returns 0x00 (0000ms, 0652ms total)
T4454 001:078 JLINK_WriteReg(R4, 0x00000000)  returns 0x00 (0000ms, 0652ms total)
T4454 001:078 JLINK_WriteReg(R5, 0x00000000)  returns 0x00 (0000ms, 0652ms total)
T4454 001:078 JLINK_WriteReg(R6, 0x00000000)  returns 0x00 (0000ms, 0652ms total)
T4454 001:078 JLINK_WriteReg(R7, 0x00000000)  returns 0x00 (0000ms, 0652ms total)
T4454 001:078 JLINK_WriteReg(R8, 0x00000000)  returns 0x00 (0000ms, 0652ms total)
T4454 001:078 JLINK_WriteReg(R9, 0x20000840)  returns 0x00 (0000ms, 0652ms total)
T4454 001:078 JLINK_WriteReg(R10, 0x00000000)  returns 0x00 (0000ms, 0652ms total)
T4454 001:078 JLINK_WriteReg(R11, 0x00000000)  returns 0x00 (0000ms, 0652ms total)
T4454 001:078 JLINK_WriteReg(R12, 0x00000000)  returns 0x00 (0000ms, 0652ms total)
T4454 001:078 JLINK_WriteReg(R13 (SP), 0x20001000)  returns 0x00 (0000ms, 0652ms total)
T4454 001:078 JLINK_WriteReg(R14, 0x20000001)  returns 0x00 (0000ms, 0652ms total)
T4454 001:078 JLINK_WriteReg(R15 (PC), 0x20000154)  returns 0x00 (0000ms, 0652ms total)
T4454 001:078 JLINK_WriteReg(XPSR, 0x01000000)  returns 0x00 (0000ms, 0652ms total)
T4454 001:078 JLINK_WriteReg(MSP, 0x20001000)  returns 0x00 (0000ms, 0652ms total)
T4454 001:078 JLINK_WriteReg(PSP, 0x20001000)  returns 0x00 (0000ms, 0652ms total)
T4454 001:078 JLINK_WriteReg(CFBP, 0x00000000)  returns 0x00 (0000ms, 0652ms total)
T4454 001:078 JLINK_SetBPEx(Addr = 0x20000000, Type = 0xFFFFFFF2)  returns 0x00000007 (0000ms, 0652ms total)
T4454 001:078 JLINK_Go() (0002ms, 0654ms total)
T4454 001:080 JLINK_IsHalted()  returns FALSE (0000ms, 0654ms total)
T4454 001:088 JLINK_IsHalted()  returns FALSE (0000ms, 0654ms total)
T4454 001:092 JLINK_IsHalted()  returns FALSE (0000ms, 0654ms total)
T4454 001:094 JLINK_IsHalted()  returns FALSE (0000ms, 0654ms total)
T4454 001:096 JLINK_IsHalted()  returns FALSE (0000ms, 0654ms total)
T4454 001:098 JLINK_IsHalted()  returns FALSE (0000ms, 0654ms total)
T4454 001:100 JLINK_IsHalted()  returns FALSE (0000ms, 0654ms total)
T4454 001:102 JLINK_IsHalted() -- CPU_ReadMem(2 bytes @ 0x20000000)  returns TRUE (0003ms, 0657ms total)
T4454 001:105 JLINK_ReadReg(R15 (PC))  returns 0x20000000 (0000ms, 0654ms total)
T4454 001:105 JLINK_ClrBPEx(BPHandle = 0x00000007)  returns 0x00 (0000ms, 0654ms total)
T4454 001:105 JLINK_ReadReg(R0)  returns 0x00000000 (0000ms, 0654ms total)
T4454 001:108 JLINK_WriteReg(R0, 0x00018C00)  returns 0x00 (0000ms, 0654ms total)
T4454 001:108 JLINK_WriteReg(R1, 0x00000400)  returns 0x00 (0000ms, 0654ms total)
T4454 001:108 JLINK_WriteReg(R2, 0x000000FF)  returns 0x00 (0000ms, 0654ms total)
T4454 001:108 JLINK_WriteReg(R3, 0x00000000)  returns 0x00 (0000ms, 0654ms total)
T4454 001:108 JLINK_WriteReg(R4, 0x00000000)  returns 0x00 (0000ms, 0654ms total)
T4454 001:108 JLINK_WriteReg(R5, 0x00000000)  returns 0x00 (0000ms, 0654ms total)
T4454 001:108 JLINK_WriteReg(R6, 0x00000000)  returns 0x00 (0000ms, 0654ms total)
T4454 001:108 JLINK_WriteReg(R7, 0x00000000)  returns 0x00 (0000ms, 0654ms total)
T4454 001:108 JLINK_WriteReg(R8, 0x00000000)  returns 0x00 (0000ms, 0654ms total)
T4454 001:108 JLINK_WriteReg(R9, 0x20000840)  returns 0x00 (0000ms, 0654ms total)
T4454 001:108 JLINK_WriteReg(R10, 0x00000000)  returns 0x00 (0000ms, 0654ms total)
T4454 001:108 JLINK_WriteReg(R11, 0x00000000)  returns 0x00 (0001ms, 0655ms total)
T4454 001:109 JLINK_WriteReg(R12, 0x00000000)  returns 0x00 (0000ms, 0655ms total)
T4454 001:109 JLINK_WriteReg(R13 (SP), 0x20001000)  returns 0x00 (0000ms, 0655ms total)
T4454 001:109 JLINK_WriteReg(R14, 0x20000001)  returns 0x00 (0000ms, 0655ms total)
T4454 001:109 JLINK_WriteReg(R15 (PC), 0x2000032C)  returns 0x00 (0000ms, 0655ms total)
T4454 001:109 JLINK_WriteReg(XPSR, 0x01000000)  returns 0x00 (0000ms, 0655ms total)
T4454 001:109 JLINK_WriteReg(MSP, 0x20001000)  returns 0x00 (0000ms, 0655ms total)
T4454 001:109 JLINK_WriteReg(PSP, 0x20001000)  returns 0x00 (0000ms, 0655ms total)
T4454 001:109 JLINK_WriteReg(CFBP, 0x00000000)  returns 0x00 (0000ms, 0655ms total)
T4454 001:109 JLINK_SetBPEx(Addr = 0x20000000, Type = 0xFFFFFFF2)  returns 0x00000008 (0000ms, 0655ms total)
T4454 001:109 JLINK_Go() (0002ms, 0657ms total)
T4454 001:111 JLINK_IsHalted() -- CPU_ReadMem(2 bytes @ 0x20000000)  returns TRUE (0003ms, 0660ms total)
T4454 001:114 JLINK_ReadReg(R15 (PC))  returns 0x20000000 (0000ms, 0657ms total)
T4454 001:114 JLINK_ClrBPEx(BPHandle = 0x00000008)  returns 0x00 (0000ms, 0657ms total)
T4454 001:114 JLINK_ReadReg(R0)  returns 0x00000001 (0000ms, 0657ms total)
T4454 001:114 JLINK_WriteReg(R0, 0x00018C00)  returns 0x00 (0000ms, 0657ms total)
T4454 001:114 JLINK_WriteReg(R1, 0x00000400)  returns 0x00 (0000ms, 0657ms total)
T4454 001:114 JLINK_WriteReg(R2, 0x000000FF)  returns 0x00 (0000ms, 0657ms total)
T4454 001:114 JLINK_WriteReg(R3, 0x00000000)  returns 0x00 (0000ms, 0657ms total)
T4454 001:114 JLINK_WriteReg(R4, 0x00000000)  returns 0x00 (0000ms, 0657ms total)
T4454 001:114 JLINK_WriteReg(R5, 0x00000000)  returns 0x00 (0000ms, 0657ms total)
T4454 001:114 JLINK_WriteReg(R6, 0x00000000)  returns 0x00 (0000ms, 0657ms total)
T4454 001:114 JLINK_WriteReg(R7, 0x00000000)  returns 0x00 (0000ms, 0657ms total)
T4454 001:114 JLINK_WriteReg(R8, 0x00000000)  returns 0x00 (0000ms, 0657ms total)
T4454 001:114 JLINK_WriteReg(R9, 0x20000840)  returns 0x00 (0000ms, 0657ms total)
T4454 001:114 JLINK_WriteReg(R10, 0x00000000)  returns 0x00 (0000ms, 0657ms total)
T4454 001:114 JLINK_WriteReg(R11, 0x00000000)  returns 0x00 (0000ms, 0657ms total)
T4454 001:114 JLINK_WriteReg(R12, 0x00000000)  returns 0x00 (0000ms, 0657ms total)
T4454 001:114 JLINK_WriteReg(R13 (SP), 0x20001000)  returns 0x00 (0000ms, 0657ms total)
T4454 001:114 JLINK_WriteReg(R14, 0x20000001)  returns 0x00 (0000ms, 0657ms total)
T4454 001:114 JLINK_WriteReg(R15 (PC), 0x20000154)  returns 0x00 (0000ms, 0657ms total)
T4454 001:114 JLINK_WriteReg(XPSR, 0x01000000)  returns 0x00 (0000ms, 0657ms total)
T4454 001:114 JLINK_WriteReg(MSP, 0x20001000)  returns 0x00 (0000ms, 0657ms total)
T4454 001:114 JLINK_WriteReg(PSP, 0x20001000)  returns 0x00 (0000ms, 0657ms total)
T4454 001:114 JLINK_WriteReg(CFBP, 0x00000000)  returns 0x00 (0000ms, 0657ms total)
T4454 001:114 JLINK_SetBPEx(Addr = 0x20000000, Type = 0xFFFFFFF2)  returns 0x00000009 (0000ms, 0657ms total)
T4454 001:114 JLINK_Go() (0002ms, 0659ms total)
T4454 001:116 JLINK_IsHalted()  returns FALSE (0001ms, 0660ms total)
T4454 001:121 JLINK_IsHalted()  returns FALSE (0000ms, 0659ms total)
T4454 001:123 JLINK_IsHalted()  returns FALSE (0000ms, 0659ms total)
T4454 001:125 JLINK_IsHalted()  returns FALSE (0000ms, 0659ms total)
T4454 001:133 JLINK_IsHalted()  returns FALSE (0000ms, 0659ms total)
T4454 001:135 JLINK_IsHalted()  returns FALSE (0000ms, 0659ms total)
T4454 001:138 JLINK_IsHalted() -- CPU_ReadMem(2 bytes @ 0x20000000)  returns TRUE (0003ms, 0662ms total)
T4454 001:141 JLINK_ReadReg(R15 (PC))  returns 0x20000000 (0000ms, 0659ms total)
T4454 001:141 JLINK_ClrBPEx(BPHandle = 0x00000009)  returns 0x00 (0000ms, 0659ms total)
T4454 001:141 JLINK_ReadReg(R0)  returns 0x00000000 (0000ms, 0659ms total)
T4454 001:142 JLINK_WriteReg(R0, 0x00019000)  returns 0x00 (0000ms, 0659ms total)
T4454 001:142 JLINK_WriteReg(R1, 0x00000400)  returns 0x00 (0000ms, 0659ms total)
T4454 001:142 JLINK_WriteReg(R2, 0x000000FF)  returns 0x00 (0000ms, 0659ms total)
T4454 001:142 JLINK_WriteReg(R3, 0x00000000)  returns 0x00 (0000ms, 0659ms total)
T4454 001:142 JLINK_WriteReg(R4, 0x00000000)  returns 0x00 (0000ms, 0659ms total)
T4454 001:142 JLINK_WriteReg(R5, 0x00000000)  returns 0x00 (0000ms, 0659ms total)
T4454 001:142 JLINK_WriteReg(R6, 0x00000000)  returns 0x00 (0000ms, 0659ms total)
T4454 001:142 JLINK_WriteReg(R7, 0x00000000)  returns 0x00 (0000ms, 0659ms total)
T4454 001:142 JLINK_WriteReg(R8, 0x00000000)  returns 0x00 (0000ms, 0659ms total)
T4454 001:142 JLINK_WriteReg(R9, 0x20000840)  returns 0x00 (0000ms, 0659ms total)
T4454 001:142 JLINK_WriteReg(R10, 0x00000000)  returns 0x00 (0000ms, 0659ms total)
T4454 001:142 JLINK_WriteReg(R11, 0x00000000)  returns 0x00 (0000ms, 0659ms total)
T4454 001:142 JLINK_WriteReg(R12, 0x00000000)  returns 0x00 (0000ms, 0659ms total)
T4454 001:142 JLINK_WriteReg(R13 (SP), 0x20001000)  returns 0x00 (0000ms, 0659ms total)
T4454 001:142 JLINK_WriteReg(R14, 0x20000001)  returns 0x00 (0000ms, 0659ms total)
T4454 001:142 JLINK_WriteReg(R15 (PC), 0x2000032C)  returns 0x00 (0000ms, 0659ms total)
T4454 001:142 JLINK_WriteReg(XPSR, 0x01000000)  returns 0x00 (0001ms, 0660ms total)
T4454 001:143 JLINK_WriteReg(MSP, 0x20001000)  returns 0x00 (0000ms, 0660ms total)
T4454 001:143 JLINK_WriteReg(PSP, 0x20001000)  returns 0x00 (0000ms, 0660ms total)
T4454 001:143 JLINK_WriteReg(CFBP, 0x00000000)  returns 0x00 (0000ms, 0660ms total)
T4454 001:143 JLINK_SetBPEx(Addr = 0x20000000, Type = 0xFFFFFFF2)  returns 0x0000000A (0000ms, 0660ms total)
T4454 001:143 JLINK_Go() (0002ms, 0662ms total)
T4454 001:145 JLINK_IsHalted() -- CPU_ReadMem(2 bytes @ 0x20000000)  returns TRUE (0004ms, 0666ms total)
T4454 001:149 JLINK_ReadReg(R15 (PC))  returns 0x20000000 (0000ms, 0662ms total)
T4454 001:149 JLINK_ClrBPEx(BPHandle = 0x0000000A)  returns 0x00 (0000ms, 0662ms total)
T4454 001:149 JLINK_ReadReg(R0)  returns 0x00000001 (0000ms, 0662ms total)
T4454 001:149 JLINK_WriteReg(R0, 0x00019000)  returns 0x00 (0000ms, 0662ms total)
T4454 001:149 JLINK_WriteReg(R1, 0x00000400)  returns 0x00 (0000ms, 0662ms total)
T4454 001:149 JLINK_WriteReg(R2, 0x000000FF)  returns 0x00 (0000ms, 0662ms total)
T4454 001:149 JLINK_WriteReg(R3, 0x00000000)  returns 0x00 (0000ms, 0662ms total)
T4454 001:149 JLINK_WriteReg(R4, 0x00000000)  returns 0x00 (0000ms, 0662ms total)
T4454 001:149 JLINK_WriteReg(R5, 0x00000000)  returns 0x00 (0000ms, 0662ms total)
T4454 001:149 JLINK_WriteReg(R6, 0x00000000)  returns 0x00 (0000ms, 0662ms total)
T4454 001:149 JLINK_WriteReg(R7, 0x00000000)  returns 0x00 (0000ms, 0662ms total)
T4454 001:149 JLINK_WriteReg(R8, 0x00000000)  returns 0x00 (0000ms, 0662ms total)
T4454 001:149 JLINK_WriteReg(R9, 0x20000840)  returns 0x00 (0000ms, 0662ms total)
T4454 001:149 JLINK_WriteReg(R10, 0x00000000)  returns 0x00 (0000ms, 0662ms total)
T4454 001:149 JLINK_WriteReg(R11, 0x00000000)  returns 0x00 (0000ms, 0662ms total)
T4454 001:149 JLINK_WriteReg(R12, 0x00000000)  returns 0x00 (0000ms, 0662ms total)
T4454 001:149 JLINK_WriteReg(R13 (SP), 0x20001000)  returns 0x00 (0000ms, 0662ms total)
T4454 001:149 JLINK_WriteReg(R14, 0x20000001)  returns 0x00 (0000ms, 0662ms total)
T4454 001:149 JLINK_WriteReg(R15 (PC), 0x20000154)  returns 0x00 (0000ms, 0662ms total)
T4454 001:149 JLINK_WriteReg(XPSR, 0x01000000)  returns 0x00 (0000ms, 0662ms total)
T4454 001:149 JLINK_WriteReg(MSP, 0x20001000)  returns 0x00 (0000ms, 0662ms total)
T4454 001:149 JLINK_WriteReg(PSP, 0x20001000)  returns 0x00 (0000ms, 0662ms total)
T4454 001:149 JLINK_WriteReg(CFBP, 0x00000000)  returns 0x00 (0000ms, 0662ms total)
T4454 001:149 JLINK_SetBPEx(Addr = 0x20000000, Type = 0xFFFFFFF2)  returns 0x0000000B (0000ms, 0662ms total)
T4454 001:149 JLINK_Go() (0002ms, 0664ms total)
T4454 001:151 JLINK_IsHalted()  returns FALSE (0001ms, 0665ms total)
T4454 001:159 JLINK_IsHalted()  returns FALSE (0000ms, 0664ms total)
T4454 001:161 JLINK_IsHalted()  returns FALSE (0000ms, 0664ms total)
T4454 001:163 JLINK_IsHalted()  returns FALSE (0000ms, 0664ms total)
T4454 001:165 JLINK_IsHalted()  returns FALSE (0000ms, 0664ms total)
T4454 001:167 JLINK_IsHalted()  returns FALSE (0000ms, 0664ms total)
T4454 001:174 JLINK_IsHalted() -- CPU_ReadMem(2 bytes @ 0x20000000)  returns TRUE (0003ms, 0667ms total)
T4454 001:177 JLINK_ReadReg(R15 (PC))  returns 0x20000000 (0000ms, 0664ms total)
T4454 001:177 JLINK_ClrBPEx(BPHandle = 0x0000000B)  returns 0x00 (0000ms, 0664ms total)
T4454 001:177 JLINK_ReadReg(R0)  returns 0x00000000 (0000ms, 0664ms total)
T4454 001:178 JLINK_WriteReg(R0, 0x00019400)  returns 0x00 (0000ms, 0664ms total)
T4454 001:178 JLINK_WriteReg(R1, 0x00000400)  returns 0x00 (0000ms, 0664ms total)
T4454 001:178 JLINK_WriteReg(R2, 0x000000FF)  returns 0x00 (0000ms, 0664ms total)
T4454 001:178 JLINK_WriteReg(R3, 0x00000000)  returns 0x00 (0000ms, 0664ms total)
T4454 001:178 JLINK_WriteReg(R4, 0x00000000)  returns 0x00 (0000ms, 0664ms total)
T4454 001:178 JLINK_WriteReg(R5, 0x00000000)  returns 0x00 (0000ms, 0664ms total)
T4454 001:178 JLINK_WriteReg(R6, 0x00000000)  returns 0x00 (0000ms, 0664ms total)
T4454 001:178 JLINK_WriteReg(R7, 0x00000000)  returns 0x00 (0000ms, 0664ms total)
T4454 001:178 JLINK_WriteReg(R8, 0x00000000)  returns 0x00 (0000ms, 0664ms total)
T4454 001:178 JLINK_WriteReg(R9, 0x20000840)  returns 0x00 (0000ms, 0664ms total)
T4454 001:178 JLINK_WriteReg(R10, 0x00000000)  returns 0x00 (0000ms, 0664ms total)
T4454 001:178 JLINK_WriteReg(R11, 0x00000000)  returns 0x00 (0000ms, 0664ms total)
T4454 001:178 JLINK_WriteReg(R12, 0x00000000)  returns 0x00 (0000ms, 0664ms total)
T4454 001:178 JLINK_WriteReg(R13 (SP), 0x20001000)  returns 0x00 (0000ms, 0664ms total)
T4454 001:178 JLINK_WriteReg(R14, 0x20000001)  returns 0x00 (0000ms, 0664ms total)
T4454 001:178 JLINK_WriteReg(R15 (PC), 0x2000032C)  returns 0x00 (0000ms, 0664ms total)
T4454 001:178 JLINK_WriteReg(XPSR, 0x01000000)  returns 0x00 (0000ms, 0664ms total)
T4454 001:178 JLINK_WriteReg(MSP, 0x20001000)  returns 0x00 (0001ms, 0665ms total)
T4454 001:179 JLINK_WriteReg(PSP, 0x20001000)  returns 0x00 (0000ms, 0665ms total)
T4454 001:179 JLINK_WriteReg(CFBP, 0x00000000)  returns 0x00 (0000ms, 0665ms total)
T4454 001:179 JLINK_SetBPEx(Addr = 0x20000000, Type = 0xFFFFFFF2)  returns 0x0000000C (0000ms, 0665ms total)
T4454 001:179 JLINK_Go() (0002ms, 0667ms total)
T4454 001:181 JLINK_IsHalted() -- CPU_ReadMem(2 bytes @ 0x20000000)  returns TRUE (0003ms, 0670ms total)
T4454 001:184 JLINK_ReadReg(R15 (PC))  returns 0x20000000 (0000ms, 0667ms total)
T4454 001:184 JLINK_ClrBPEx(BPHandle = 0x0000000C)  returns 0x00 (0000ms, 0667ms total)
T4454 001:184 JLINK_ReadReg(R0)  returns 0x00000001 (0000ms, 0667ms total)
T4454 001:184 JLINK_WriteReg(R0, 0x00019400)  returns 0x00 (0000ms, 0667ms total)
T4454 001:185 JLINK_WriteReg(R1, 0x00000400)  returns 0x00 (0000ms, 0668ms total)
T4454 001:185 JLINK_WriteReg(R2, 0x000000FF)  returns 0x00 (0000ms, 0668ms total)
T4454 001:185 JLINK_WriteReg(R3, 0x00000000)  returns 0x00 (0000ms, 0668ms total)
T4454 001:185 JLINK_WriteReg(R4, 0x00000000)  returns 0x00 (0000ms, 0668ms total)
T4454 001:185 JLINK_WriteReg(R5, 0x00000000)  returns 0x00 (0000ms, 0668ms total)
T4454 001:185 JLINK_WriteReg(R6, 0x00000000)  returns 0x00 (0000ms, 0668ms total)
T4454 001:185 JLINK_WriteReg(R7, 0x00000000)  returns 0x00 (0000ms, 0668ms total)
T4454 001:185 JLINK_WriteReg(R8, 0x00000000)  returns 0x00 (0000ms, 0668ms total)
T4454 001:185 JLINK_WriteReg(R9, 0x20000840)  returns 0x00 (0000ms, 0668ms total)
T4454 001:185 JLINK_WriteReg(R10, 0x00000000)  returns 0x00 (0000ms, 0668ms total)
T4454 001:185 JLINK_WriteReg(R11, 0x00000000)  returns 0x00 (0000ms, 0668ms total)
T4454 001:185 JLINK_WriteReg(R12, 0x00000000)  returns 0x00 (0000ms, 0668ms total)
T4454 001:185 JLINK_WriteReg(R13 (SP), 0x20001000)  returns 0x00 (0000ms, 0668ms total)
T4454 001:185 JLINK_WriteReg(R14, 0x20000001)  returns 0x00 (0000ms, 0668ms total)
T4454 001:185 JLINK_WriteReg(R15 (PC), 0x20000154)  returns 0x00 (0000ms, 0668ms total)
T4454 001:185 JLINK_WriteReg(XPSR, 0x01000000)  returns 0x00 (0000ms, 0668ms total)
T4454 001:185 JLINK_WriteReg(MSP, 0x20001000)  returns 0x00 (0000ms, 0668ms total)
T4454 001:185 JLINK_WriteReg(PSP, 0x20001000)  returns 0x00 (0000ms, 0668ms total)
T4454 001:185 JLINK_WriteReg(CFBP, 0x00000000)  returns 0x00 (0000ms, 0668ms total)
T4454 001:185 JLINK_SetBPEx(Addr = 0x20000000, Type = 0xFFFFFFF2)  returns 0x0000000D (0000ms, 0668ms total)
T4454 001:185 JLINK_Go() (0002ms, 0670ms total)
T4454 001:187 JLINK_IsHalted()  returns FALSE (0000ms, 0670ms total)
T4454 001:197 JLINK_IsHalted()  returns FALSE (0000ms, 0670ms total)
T4454 001:199 JLINK_IsHalted()  returns FALSE (0000ms, 0670ms total)
T4454 001:201 JLINK_IsHalted()  returns FALSE (0000ms, 0670ms total)
T4454 001:206 JLINK_IsHalted()  returns FALSE (0000ms, 0670ms total)
T4454 001:208 JLINK_IsHalted() -- CPU_ReadMem(2 bytes @ 0x20000000)  returns TRUE (0003ms, 0673ms total)
T4454 001:211 JLINK_ReadReg(R15 (PC))  returns 0x20000000 (0000ms, 0670ms total)
T4454 001:211 JLINK_ClrBPEx(BPHandle = 0x0000000D)  returns 0x00 (0000ms, 0670ms total)
T4454 001:211 JLINK_ReadReg(R0)  returns 0x00000000 (0000ms, 0670ms total)
T4454 001:212 JLINK_WriteReg(R0, 0x00019800)  returns 0x00 (0000ms, 0670ms total)
T4454 001:212 JLINK_WriteReg(R1, 0x00000400)  returns 0x00 (0000ms, 0670ms total)
T4454 001:212 JLINK_WriteReg(R2, 0x000000FF)  returns 0x00 (0000ms, 0670ms total)
T4454 001:212 JLINK_WriteReg(R3, 0x00000000)  returns 0x00 (0000ms, 0670ms total)
T4454 001:212 JLINK_WriteReg(R4, 0x00000000)  returns 0x00 (0000ms, 0670ms total)
T4454 001:212 JLINK_WriteReg(R5, 0x00000000)  returns 0x00 (0000ms, 0670ms total)
T4454 001:212 JLINK_WriteReg(R6, 0x00000000)  returns 0x00 (0000ms, 0670ms total)
T4454 001:212 JLINK_WriteReg(R7, 0x00000000)  returns 0x00 (0000ms, 0670ms total)
T4454 001:212 JLINK_WriteReg(R8, 0x00000000)  returns 0x00 (0000ms, 0670ms total)
T4454 001:212 JLINK_WriteReg(R9, 0x20000840)  returns 0x00 (0000ms, 0670ms total)
T4454 001:212 JLINK_WriteReg(R10, 0x00000000)  returns 0x00 (0001ms, 0671ms total)
T4454 001:213 JLINK_WriteReg(R11, 0x00000000)  returns 0x00 (0000ms, 0671ms total)
T4454 001:213 JLINK_WriteReg(R12, 0x00000000)  returns 0x00 (0000ms, 0671ms total)
T4454 001:213 JLINK_WriteReg(R13 (SP), 0x20001000)  returns 0x00 (0000ms, 0671ms total)
T4454 001:213 JLINK_WriteReg(R14, 0x20000001)  returns 0x00 (0000ms, 0671ms total)
T4454 001:213 JLINK_WriteReg(R15 (PC), 0x2000032C)  returns 0x00 (0000ms, 0671ms total)
T4454 001:213 JLINK_WriteReg(XPSR, 0x01000000)  returns 0x00 (0000ms, 0671ms total)
T4454 001:213 JLINK_WriteReg(MSP, 0x20001000)  returns 0x00 (0000ms, 0671ms total)
T4454 001:213 JLINK_WriteReg(PSP, 0x20001000)  returns 0x00 (0000ms, 0671ms total)
T4454 001:213 JLINK_WriteReg(CFBP, 0x00000000)  returns 0x00 (0000ms, 0671ms total)
T4454 001:213 JLINK_SetBPEx(Addr = 0x20000000, Type = 0xFFFFFFF2)  returns 0x0000000E (0000ms, 0671ms total)
T4454 001:213 JLINK_Go() (0002ms, 0673ms total)
T4454 001:215 JLINK_IsHalted() -- CPU_ReadMem(2 bytes @ 0x20000000)  returns TRUE (0004ms, 0677ms total)
T4454 001:219 JLINK_ReadReg(R15 (PC))  returns 0x20000000 (0000ms, 0673ms total)
T4454 001:219 JLINK_ClrBPEx(BPHandle = 0x0000000E)  returns 0x00 (0000ms, 0673ms total)
T4454 001:219 JLINK_ReadReg(R0)  returns 0x00000001 (0000ms, 0673ms total)
T4454 001:219 JLINK_WriteReg(R0, 0x00019800)  returns 0x00 (0000ms, 0673ms total)
T4454 001:219 JLINK_WriteReg(R1, 0x00000400)  returns 0x00 (0000ms, 0673ms total)
T4454 001:219 JLINK_WriteReg(R2, 0x000000FF)  returns 0x00 (0000ms, 0673ms total)
T4454 001:219 JLINK_WriteReg(R3, 0x00000000)  returns 0x00 (0000ms, 0673ms total)
T4454 001:219 JLINK_WriteReg(R4, 0x00000000)  returns 0x00 (0000ms, 0673ms total)
T4454 001:219 JLINK_WriteReg(R5, 0x00000000)  returns 0x00 (0000ms, 0673ms total)
T4454 001:219 JLINK_WriteReg(R6, 0x00000000)  returns 0x00 (0000ms, 0673ms total)
T4454 001:219 JLINK_WriteReg(R7, 0x00000000)  returns 0x00 (0000ms, 0673ms total)
T4454 001:219 JLINK_WriteReg(R8, 0x00000000)  returns 0x00 (0000ms, 0673ms total)
T4454 001:219 JLINK_WriteReg(R9, 0x20000840)  returns 0x00 (0000ms, 0673ms total)
T4454 001:219 JLINK_WriteReg(R10, 0x00000000)  returns 0x00 (0000ms, 0673ms total)
T4454 001:219 JLINK_WriteReg(R11, 0x00000000)  returns 0x00 (0000ms, 0673ms total)
T4454 001:219 JLINK_WriteReg(R12, 0x00000000)  returns 0x00 (0001ms, 0674ms total)
T4454 001:220 JLINK_WriteReg(R13 (SP), 0x20001000)  returns 0x00 (0000ms, 0674ms total)
T4454 001:220 JLINK_WriteReg(R14, 0x20000001)  returns 0x00 (0000ms, 0674ms total)
T4454 001:220 JLINK_WriteReg(R15 (PC), 0x20000154)  returns 0x00 (0000ms, 0674ms total)
T4454 001:220 JLINK_WriteReg(XPSR, 0x01000000)  returns 0x00 (0000ms, 0674ms total)
T4454 001:220 JLINK_WriteReg(MSP, 0x20001000)  returns 0x00 (0000ms, 0674ms total)
T4454 001:220 JLINK_WriteReg(PSP, 0x20001000)  returns 0x00 (0000ms, 0674ms total)
T4454 001:220 JLINK_WriteReg(CFBP, 0x00000000)  returns 0x00 (0000ms, 0674ms total)
T4454 001:220 JLINK_SetBPEx(Addr = 0x20000000, Type = 0xFFFFFFF2)  returns 0x0000000F (0000ms, 0674ms total)
T4454 001:220 JLINK_Go() (0002ms, 0676ms total)
T4454 001:222 JLINK_IsHalted()  returns FALSE (0000ms, 0676ms total)
T4454 001:228 JLINK_IsHalted()  returns FALSE (0000ms, 0676ms total)
T4454 001:230 JLINK_IsHalted()  returns FALSE (0000ms, 0676ms total)
T4454 001:232 JLINK_IsHalted()  returns FALSE (0000ms, 0676ms total)
T4454 001:242 JLINK_IsHalted()  returns FALSE (0000ms, 0676ms total)
T4454 001:244 JLINK_IsHalted() -- CPU_ReadMem(2 bytes @ 0x20000000)  returns TRUE (0004ms, 0680ms total)
T4454 001:248 JLINK_ReadReg(R15 (PC))  returns 0x20000000 (0000ms, 0676ms total)
T4454 001:248 JLINK_ClrBPEx(BPHandle = 0x0000000F)  returns 0x00 (0000ms, 0676ms total)
T4454 001:248 JLINK_ReadReg(R0)  returns 0x00000000 (0000ms, 0676ms total)
T4454 001:248 JLINK_WriteReg(R0, 0x00019C00)  returns 0x00 (0000ms, 0676ms total)
T4454 001:248 JLINK_WriteReg(R1, 0x00000400)  returns 0x00 (0000ms, 0676ms total)
T4454 001:248 JLINK_WriteReg(R2, 0x000000FF)  returns 0x00 (0000ms, 0676ms total)
T4454 001:248 JLINK_WriteReg(R3, 0x00000000)  returns 0x00 (0000ms, 0676ms total)
T4454 001:248 JLINK_WriteReg(R4, 0x00000000)  returns 0x00 (0000ms, 0676ms total)
T4454 001:248 JLINK_WriteReg(R5, 0x00000000)  returns 0x00 (0000ms, 0676ms total)
T4454 001:248 JLINK_WriteReg(R6, 0x00000000)  returns 0x00 (0001ms, 0677ms total)
T4454 001:249 JLINK_WriteReg(R7, 0x00000000)  returns 0x00 (0000ms, 0677ms total)
T4454 001:249 JLINK_WriteReg(R8, 0x00000000)  returns 0x00 (0000ms, 0677ms total)
T4454 001:249 JLINK_WriteReg(R9, 0x20000840)  returns 0x00 (0000ms, 0677ms total)
T4454 001:249 JLINK_WriteReg(R10, 0x00000000)  returns 0x00 (0000ms, 0677ms total)
T4454 001:249 JLINK_WriteReg(R11, 0x00000000)  returns 0x00 (0000ms, 0677ms total)
T4454 001:249 JLINK_WriteReg(R12, 0x00000000)  returns 0x00 (0000ms, 0677ms total)
T4454 001:249 JLINK_WriteReg(R13 (SP), 0x20001000)  returns 0x00 (0000ms, 0677ms total)
T4454 001:249 JLINK_WriteReg(R14, 0x20000001)  returns 0x00 (0000ms, 0677ms total)
T4454 001:249 JLINK_WriteReg(R15 (PC), 0x2000032C)  returns 0x00 (0000ms, 0677ms total)
T4454 001:249 JLINK_WriteReg(XPSR, 0x01000000)  returns 0x00 (0000ms, 0677ms total)
T4454 001:249 JLINK_WriteReg(MSP, 0x20001000)  returns 0x00 (0000ms, 0677ms total)
T4454 001:249 JLINK_WriteReg(PSP, 0x20001000)  returns 0x00 (0000ms, 0677ms total)
T4454 001:249 JLINK_WriteReg(CFBP, 0x00000000)  returns 0x00 (0000ms, 0677ms total)
T4454 001:249 JLINK_SetBPEx(Addr = 0x20000000, Type = 0xFFFFFFF2)  returns 0x00000010 (0000ms, 0677ms total)
T4454 001:249 JLINK_Go() (0002ms, 0679ms total)
T4454 001:251 JLINK_IsHalted() -- CPU_ReadMem(2 bytes @ 0x20000000)  returns TRUE (0003ms, 0682ms total)
T4454 001:254 JLINK_ReadReg(R15 (PC))  returns 0x20000000 (0000ms, 0679ms total)
T4454 001:254 JLINK_ClrBPEx(BPHandle = 0x00000010)  returns 0x00 (0001ms, 0680ms total)
T4454 001:255 JLINK_ReadReg(R0)  returns 0x00000001 (0000ms, 0680ms total)
T4454 001:255 JLINK_WriteReg(R0, 0x00019C00)  returns 0x00 (0000ms, 0680ms total)
T4454 001:255 JLINK_WriteReg(R1, 0x00000400)  returns 0x00 (0000ms, 0680ms total)
T4454 001:255 JLINK_WriteReg(R2, 0x000000FF)  returns 0x00 (0000ms, 0680ms total)
T4454 001:255 JLINK_WriteReg(R3, 0x00000000)  returns 0x00 (0000ms, 0680ms total)
T4454 001:255 JLINK_WriteReg(R4, 0x00000000)  returns 0x00 (0000ms, 0680ms total)
T4454 001:255 JLINK_WriteReg(R5, 0x00000000)  returns 0x00 (0000ms, 0680ms total)
T4454 001:255 JLINK_WriteReg(R6, 0x00000000)  returns 0x00 (0000ms, 0680ms total)
T4454 001:255 JLINK_WriteReg(R7, 0x00000000)  returns 0x00 (0000ms, 0680ms total)
T4454 001:255 JLINK_WriteReg(R8, 0x00000000)  returns 0x00 (0000ms, 0680ms total)
T4454 001:255 JLINK_WriteReg(R9, 0x20000840)  returns 0x00 (0000ms, 0680ms total)
T4454 001:255 JLINK_WriteReg(R10, 0x00000000)  returns 0x00 (0000ms, 0680ms total)
T4454 001:255 JLINK_WriteReg(R11, 0x00000000)  returns 0x00 (0000ms, 0680ms total)
T4454 001:255 JLINK_WriteReg(R12, 0x00000000)  returns 0x00 (0000ms, 0680ms total)
T4454 001:255 JLINK_WriteReg(R13 (SP), 0x20001000)  returns 0x00 (0000ms, 0680ms total)
T4454 001:255 JLINK_WriteReg(R14, 0x20000001)  returns 0x00 (0000ms, 0680ms total)
T4454 001:255 JLINK_WriteReg(R15 (PC), 0x20000154)  returns 0x00 (0000ms, 0680ms total)
T4454 001:255 JLINK_WriteReg(XPSR, 0x01000000)  returns 0x00 (0000ms, 0680ms total)
T4454 001:255 JLINK_WriteReg(MSP, 0x20001000)  returns 0x00 (0000ms, 0680ms total)
T4454 001:255 JLINK_WriteReg(PSP, 0x20001000)  returns 0x00 (0000ms, 0680ms total)
T4454 001:255 JLINK_WriteReg(CFBP, 0x00000000)  returns 0x00 (0000ms, 0680ms total)
T4454 001:255 JLINK_SetBPEx(Addr = 0x20000000, Type = 0xFFFFFFF2)  returns 0x00000011 (0000ms, 0680ms total)
T4454 001:255 JLINK_Go() (0002ms, 0682ms total)
T4454 001:257 JLINK_IsHalted()  returns FALSE (0000ms, 0682ms total)
T4454 001:260 JLINK_IsHalted()  returns FALSE (0000ms, 0682ms total)
T4454 001:266 JLINK_IsHalted()  returns FALSE (0000ms, 0682ms total)
T4454 001:268 JLINK_IsHalted()  returns FALSE (0000ms, 0682ms total)
T4454 001:270 JLINK_IsHalted()  returns FALSE (0000ms, 0682ms total)
T4454 001:272 JLINK_IsHalted()  returns FALSE (0000ms, 0682ms total)
T4454 001:274 JLINK_IsHalted()  returns FALSE (0000ms, 0682ms total)
T4454 001:276 JLINK_IsHalted()  returns FALSE (0000ms, 0682ms total)
T4454 001:281 JLINK_IsHalted() -- CPU_ReadMem(2 bytes @ 0x20000000)  returns TRUE (0003ms, 0685ms total)
T4454 001:284 JLINK_ReadReg(R15 (PC))  returns 0x20000000 (0000ms, 0682ms total)
T4454 001:284 JLINK_ClrBPEx(BPHandle = 0x00000011)  returns 0x00 (0000ms, 0682ms total)
T4454 001:284 JLINK_ReadReg(R0)  returns 0x00000000 (0000ms, 0682ms total)
T4454 001:285 JLINK_WriteReg(R0, 0x0001A000)  returns 0x00 (0000ms, 0682ms total)
T4454 001:285 JLINK_WriteReg(R1, 0x00000400)  returns 0x00 (0000ms, 0682ms total)
T4454 001:285 JLINK_WriteReg(R2, 0x000000FF)  returns 0x00 (0000ms, 0682ms total)
T4454 001:285 JLINK_WriteReg(R3, 0x00000000)  returns 0x00 (0000ms, 0682ms total)
T4454 001:285 JLINK_WriteReg(R4, 0x00000000)  returns 0x00 (0000ms, 0682ms total)
T4454 001:285 JLINK_WriteReg(R5, 0x00000000)  returns 0x00 (0000ms, 0682ms total)
T4454 001:285 JLINK_WriteReg(R6, 0x00000000)  returns 0x00 (0000ms, 0682ms total)
T4454 001:285 JLINK_WriteReg(R7, 0x00000000)  returns 0x00 (0000ms, 0682ms total)
T4454 001:285 JLINK_WriteReg(R8, 0x00000000)  returns 0x00 (0000ms, 0682ms total)
T4454 001:285 JLINK_WriteReg(R9, 0x20000840)  returns 0x00 (0000ms, 0682ms total)
T4454 001:285 JLINK_WriteReg(R10, 0x00000000)  returns 0x00 (0000ms, 0682ms total)
T4454 001:285 JLINK_WriteReg(R11, 0x00000000)  returns 0x00 (0000ms, 0682ms total)
T4454 001:285 JLINK_WriteReg(R12, 0x00000000)  returns 0x00 (0000ms, 0682ms total)
T4454 001:285 JLINK_WriteReg(R13 (SP), 0x20001000)  returns 0x00 (0000ms, 0682ms total)
T4454 001:285 JLINK_WriteReg(R14, 0x20000001)  returns 0x00 (0000ms, 0682ms total)
T4454 001:285 JLINK_WriteReg(R15 (PC), 0x2000032C)  returns 0x00 (0000ms, 0682ms total)
T4454 001:285 JLINK_WriteReg(XPSR, 0x01000000)  returns 0x00 (0000ms, 0682ms total)
T4454 001:285 JLINK_WriteReg(MSP, 0x20001000)  returns 0x00 (0000ms, 0682ms total)
T4454 001:285 JLINK_WriteReg(PSP, 0x20001000)  returns 0x00 (0000ms, 0682ms total)
T4454 001:286 JLINK_WriteReg(CFBP, 0x00000000)  returns 0x00 (0000ms, 0682ms total)
T4454 001:286 JLINK_SetBPEx(Addr = 0x20000000, Type = 0xFFFFFFF2)  returns 0x00000012 (0000ms, 0682ms total)
T4454 001:286 JLINK_Go() (0001ms, 0683ms total)
T4454 001:287 JLINK_IsHalted() -- CPU_ReadMem(2 bytes @ 0x20000000)  returns TRUE (0004ms, 0687ms total)
T4454 001:291 JLINK_ReadReg(R15 (PC))  returns 0x20000000 (0000ms, 0683ms total)
T4454 001:291 JLINK_ClrBPEx(BPHandle = 0x00000012)  returns 0x00 (0000ms, 0683ms total)
